   0.000000 CANFD   5 Rx        194                                   1 0 f 64 00 00 00 00 00 00 0e 28 00 00 00 00 00 00 00 00 00 00 00 00 00 00 00 00 00 00 00 00 00 00 00 00 00 00 00 00 00 00 00 00 00 00 00 00 00 00 00 00 00 00 00 00 00 00 00 00 00 00 00 00 00 00 00 00        0    0     3000        0        0        0        0        0
   0.000371 CANFD   5 Rx        140                                   1 0 f 64 4e 45 f4 5d 55 25 77 5c 2f 81 36 ba f0 2a 30 00 c3 ba f2 21 77 c8 22 00 0f 00 00 00 00 00 00 00 00 00 00 00 00 00 00 00 00 00 00 00 00 00 00 00 00 00 00 00 00 00 00 00 00 00 00 00 00 00 00 00        0    0     3000        0        0        0        0        0
   0.001096 CANFD   5 Rx        120                                   1 0 f 64 90 68 00 00 00 00 06 a8 46 50 07 d0 07 d0 00 00 0f a0 20 00 80 00 00 00 10 00 02 00 86 00 00 00 20 00 20 00 16 80 00 00 20 00 20 00 00 00 00 00 3b c3 52 14 42 70 f0 00 00 20 00 e0 72 40 00 00        0    0     3000        0        0        0        0        0
   0.001238 0 329             Rx   d 8 06 21 4A 47 00 00 00 C7
   0.001424 3 1C3             Rx   d 8 80 00 00 03 00 C3 0E 9A
   0.001470 0 1C2             Rx   d 8 05 57 D0 22 64 80 03 4D
   0.001474 CANFD   5 Rx        160                                   1 0 f 64 01 24 00 00 20 a0 fb d1 16 1b 84 58 7e 00 10 00 04 fc b4 10 d8 30 00 00 7f 9c 5e 7a 00 00 40 00 7d 00 27 10 63 84 20 00 3a ec 8a 08 b8 12 10 00 ba ec 6a 52 00 2b 40 00 46 56 7c 27 d0 15 00 00        0    0     3000        0        0        0        0        0
   0.001541 4 329             Rx   d 8 06 21 4A 47 00 00 00 C7
   0.001710 0 82              Rx   d 8 02 00 0A 00 00 00 59 13
   0.001651 2 130             Rx   d 8 46 4A 07 CD 07 D0 06 00
   0.001662 3 186             Rx   d 8 00 E8 00 00 81 00 0E 2C
   0.001891 2 122             Rx   d 8 20 00 20 00 16 80 06 4D
   0.001948 0 F3              Rx   d 8 02 64 01 84 00 00 00 00
   0.001904 3 122             Rx   d 8 20 00 20 00 16 80 0E 1A
   0.001905 CANFD   5 Rx         82                                   1 0 8  8 02 00 0a 00 00 00 59 13        0    0     3000        0        0        0        0        0
   0.002133 2 123             Rx   d 8 20 00 20 00 00 00 06 8E
   0.002146 3 123             Rx   d 8 20 00 20 00 00 00 0E D9
   0.002189 0 112             Rx   d 8 00 00 00 34 4C 00 59 F3
   0.002228 CANFD   5 Rx         74                                   1 0 8  8 7e ce 80 00 15 ff 11 92        0    0     3000        0        0        0        0        0
   0.002361 2 124             Rx   d 8 3B C3 52 14 42 70 F6 A7
   0.002384 3 125             Rx   d 8 00 20 00 E0 72 40 0E FA
   0.002426 0 121             Rx   d 8 10 00 02 00 86 00 03 5D
   0.002413 CANFD   5 Rx        112                                   1 0 8  8 00 00 00 34 4c 00 59 f3        0    0     3000        0        0        0        0        0
   0.002597 2 125             Rx   d 8 00 20 00 E0 72 40 06 AD
   0.002624 3 112             Rx   d 8 00 00 00 34 4C 00 59 F3
   0.002667 0 122             Rx   d 8 20 00 20 00 16 80 03 DE
   0.002843 2 168             Rx   d 8 01 24 00 00 20 A0 F6 F0
   0.002866 3 168             Rx   d 8 01 24 00 00 20 A0 FE A7
   0.002911 0 123             Rx   d 8 20 00 20 00 00 00 03 1D
   0.003151 0 125             Rx   d 8 00 20 00 E0 72 40 03 3E
   0.003103 3 A2              Rx   d 8 00 E8 A8 00 00 00 91 74
   0.003184 CANFD   5 Rx        1e0                                   1 0 f 64 80 08 00 80 00 00 07 6b 80 08 00 80 00 00 00 00 80 00 80 00 00 00 00 00 80 08 00 80 00 00 00 00 80 08 00 80 00 00 00 00 80 00 80 00 00 00 00 00 00 00 00 00 00 00 00 00 00 00 00 00 00 00 00 00        0    0     3000        0        0        0        0        0
   0.003296 CANFD   5 Rx         a2                                   1 0 8  8 00 e8 a8 00 00 00 91 74        0    0     3000        0        0        0        0        0
   0.003339 3 A3              Rx   d 8 03 FF 54 96 1B 6A 01 6C
   0.003391 0 126             Rx   d 8 90 68 00 00 00 00 03 B9
   0.003503 CANFD   5 Rx         a3                                   1 0 8  8 03 ff 54 96 1b 6a 01 6c        0    0     3000        0        0        0        0        0
   0.003633 0 129             Rx   d 8 0F A0 20 00 80 00 03 47
   0.003583 3 150             Rx   d 8 00 02 04 80 01 00 00 E7
   0.003821 3 1A4             Rx   d 8 20 02 07 D0 09 64 3E 36
   0.003764 CANFD   5 Rx        150                                   1 0 8  8 00 02 04 80 01 00 00 e7        0    0     3000        0        0        0        0        0
   0.003857 0 131             Rx   d 8 4E 45 F4 5D 55 25 73 61
   0.004090 0 161             Rx   d 8 7F 9C 5E 7A 00 00 43 C9
   0.004054 3 1A5             Rx   d 8 80 00 00 15 12 55 0E D5
   0.004336 0 168             Rx   d 8 01 24 00 00 20 A0 F3 63
   0.004578 0 186             Rx   d 8 00 E8 00 00 81 00 03 E8
   0.004812 0 187             Rx   d 8 00 4C 5B 05 94 01 03 8B
   0.005052 0 18B             Rx   d 8 00 07 D0 00 00 00 73 45
   0.005290 0 1A4             Rx   d 8 20 02 07 D0 09 64 33 F2
   0.006350 0 73              Rx   d 8 17 D5 17 D5 A7 10 52 32
   0.006517 CANFD   5 Rx         73                                   1 0 8  8 17 d5 17 d5 a7 10 52 32        0    0     3000        0        0        0        0        0
   0.006588 0 74              Rx   d 8 7E CE 80 00 15 FF 12 E3
   0.006621 4 3B4             Rx   d 8 00 00 00 00 00 00 03 1B
   0.006664 3 73              Rx   d 8 17 D5 17 D5 A7 10 52 32
   0.006831 0 113             Rx   d 8 90 00 00 00 00 00 09 FA
   0.006849 CANFD   5 Rx        3b4                                   1 0 8  8 00 00 00 00 00 00 03 1b        0    0     3000        0        0        0        0        0
   0.007069 0 1CA             Rx   d 8 22 00 10 00 02 82 09 71
   0.007236 CANFD   5 Rx        1ca                                   1 0 8  8 22 00 10 00 02 82 09 71        0    0     3000        0        0        0        0        0
   0.007388 3 1CA             Rx   d 8 22 00 10 00 02 82 09 71
   0.007575 2 A0              Rx   d 8 00 EE 28 00 80 00 09 5E
   0.009309 CANFD   5 Rx        175                                   1 0 f 64 00 00 00 01 24 00 0c e3 68 44 22 00 00 00 00 00 62 00 49 28 00 00 00 00 00 00 00 00 00 00 00 00 00 00 00 00 00 00 00 00 00 00 00 00 00 00 00 00 00 00 00 00 00 00 00 00 00 00 00 00 00 00 00 00        0    0     3000        0        0        0        0        0
   0.009785 0 139             Rx   d 8 8B 05 00 00 00 00 0E 98
   0.009792 CANFD   5 Rx        1a0                                   1 0 f 64 00 00 00 00 00 00 07 b9 00 00 00 00 60 00 60 00 02 3c 00 25 06 00 40 00 20 02 07 d0 09 64 30 00 80 00 00 15 12 55 00 00 50 00 00 80 90 00 00 00 00 00 00 00 00 00 40 00 3d 3a 5e 5a 56 00 00 00        0    0     3000        0        0        0        0        0
   0.010163 CANFD   5 Rx        140                                   1 0 f 64 4e 45 f4 5d 55 25 78 0d 2f 81 36 ba ee 2a 30 00 c3 ba ee 21 77 c8 22 00 0f 00 00 00 00 00 00 00 00 00 00 00 00 00 00 00 00 00 00 00 00 00 00 00 00 00 00 00 00 00 00 00 00 00 00 00 00 00 00 00        0    0     3000        0        0        0        0        0
   0.010531 CANFD   5 Rx        1a9                                   1 0 f 64 00 00 00 00 00 a2 07 8e 07 0b 00 34 84 39 00 00 7f f8 00 80 42 00 00 00 0a 12 00 23 63 df 00 00 7f f7 ff 7f c2 00 00 00 06 0c 00 37 d3 d6 00 00 7f e7 ff 7f 02 00 00 00 03 07 b9 00 00 00 00 00        0    0     3000        0        0        0        0        0
   0.010892 CANFD   5 Rx        160                                   1 0 f 64 01 24 00 00 20 a0 fc 33 16 1b 84 58 7e 00 10 00 04 fc b4 10 e8 30 00 00 7f 9c 5e 7a 00 00 40 00 7d 00 27 10 63 84 20 00 3a ec 8a 08 b8 12 10 00 ba ee 6a 52 00 2b 40 00 46 56 7c 27 d0 15 00 00        0    0     3000        0        0        0        0        0
   0.011016 3 18F             Rx   d 8 00 00 00 00 00 00 00 00
   0.011221 0 32A             Rx   d 8 01 00 00 10 0C 00 02 00
   0.011274 CANFD   5 Rx        193                                   1 0 f 64 81 00 00 08 00 00 0f ec 00 ff 00 00 00 ff 00 00 00 00 00 00 00 00 00 00 00 00 00 00 00 00 00 00 00 00 00 00 00 00 00 00 00 00 00 00 00 00 00 00 00 00 00 00 00 00 00 00 00 00 00 00 00 00 00 00        0    0     3000        0        0        0        0        0
   0.011460 0 F3              Rx   d 8 02 64 01 84 00 00 00 00
   0.011523 4 32A             Rx   d 8 01 00 00 10 0C 00 02 00
   0.011644 CANFD   5 Rx        1ab                                   1 0 f 64 14 6a 00 03 f0 0c c7 d0 7f f7 ff 81 4b 08 00 00 03 dc 16 d2 00 80 40 00 7f f7 ff 16 6c 68 00 00 02 00 1f f8 00 7f e0 00 7f 8a 0c 04 1e 47 80 00 7f f8 02 7f 82 00 00 00 02 00 00 02 00 00 00 00        0    0     3000        0        0        0        0        0
   0.012008 CANFD   5 Rx        1ac                                   1 0 f 64 09 62 00 03 f5 27 87 72 7f f8 00 7f cb 0b 00 00 04 2c 46 22 00 81 c0 00 80 08 01 13 5c 10 00 00 02 00 59 88 00 7f f0 00 80 4c 02 03 f1 0f 50 00 7f f7 ff 81 c2 00 00 00 80 08 00 00 04 00 00 00        0    0     3000        0        0        0        0        0
   0.012375 CANFD   5 Rx        1ad                                   1 0 f 64 12 5a 00 03 f0 06 a7 6a 80 07 ff 80 0a 0d 00 00 04 00 2a 02 00 80 80 00 7f f7 ff 03 5b f2 00 00 02 00 11 67 fe 7f f0 00 7f dc 10 f4 76 4c 70 00 81 a7 fe 7a 41 ff 00 00 02 00 00 02 00 00 00 00        0    0     3000        0        0        0        0        0
   0.012513 4 192             Rx   d 8 00 00 00 00 00 02 09 EF
   0.012744 CANFD   5 Rx        1b9                                   1 0 f 64 11 0d 19 22 c4 72 07 1b 80 08 00 80 02 00 00 00 18 0a 00 2b e3 fc 00 00 80 07 ff 81 02 00 00 00 0e 0b 1e 56 54 0b 00 00 80 07 ff 80 02 00 00 00 00 00 00 00 00 00 00 00 00 00 00 00 00 00 00 00        0    0     3000        0        0        0        0        0
   0.012768 3 A2              Rx   d 8 00 E8 A8 00 00 00 92 05
   0.012998 3 A3              Rx   d 8 03 FF 54 96 1B 6A 02 1D
   0.013111 CANFD   5 Rx        1bc                                   1 0 f 64 17 62 00 03 ad 40 f7 b7 7f f7 ff 80 5b 01 00 00 04 3f 1e 62 00 80 c0 00 80 18 00 15 5c 8d 00 00 02 00 4d 08 00 7f e0 00 7e c0 00 04 00 00 00 00 80 08 00 80 02 00 00 00 80 08 00 00 04 00 00 00        0    0     3000        0        0        0        0        0
   0.013222 CANFD   5 Rx         a2                                   1 0 8  8 00 e8 a8 00 00 00 92 05        0    0     3000        0        0        0        0        0
   0.013330 CANFD   5 Rx         a3                                   1 0 8  8 03 ff 54 96 1b 6a 02 1d        0    0     3000        0        0        0        0        0
   0.013702 CANFD   5 Rx        185                                   1 0 f 64 00 00 00 00 00 14 44 72 00 00 00 00 d2 95 40 00 00 4c 5b 05 94 01 00 00 00 1c 00 43 14 69 10 00 00 00 00 00 00 00 00 00 00 e8 00 00 81 04 00 00 00 00 00 7f 00 00 00 00 00 00 00 00 00 00 00 00        0    0     3000        0        0        0        0        0
   0.014074 CANFD   5 Rx        1be                                   1 0 f 64 05 5a 00 04 34 3d f7 11 80 07 ff 80 0a 04 00 00 04 5b 44 f2 00 7f c0 00 80 07 fe 19 63 d7 00 00 02 00 19 07 ff 7f f0 00 80 00 00 04 00 00 00 00 80 08 00 80 02 00 00 00 00 00 00 00 00 00 00 00        0    0     3000        0        0        0        0        0
   0.014450 CANFD   5 Rx        1bf                                   1 0 f 64 00 02 00 04 00 00 07 f1 80 08 00 80 0b 1c 00 00 f4 5c 39 02 00 80 00 00 80 07 ff 00 04 00 00 00 02 00 00 08 00 80 00 00 80 00 00 04 00 00 00 00 80 08 00 80 00 80 00 00 00 00 00 00 00 00 00 00        0    0     3000        0        0        0        0        0
   0.016350 0 73              Rx   d 8 17 D5 17 D5 A7 10 53 1D
   0.016517 CANFD   5 Rx         73                                   1 0 8  8 17 d5 17 d5 a7 10 53 1d        0    0     3000        0        0        0        0        0
   0.016588 0 74              Rx   d 8 7E CE 80 00 15 FF 13 CC
   0.016665 3 73              Rx   d 8 17 D5 17 D5 A7 10 53 1D
   0.016831 0 77              Rx   d 8 20 00 00 00 49 BF 0A 5B
   0.017081 0 81              Rx   d 8 00 00 00 00 00 00 0A 63
   0.017313 0 11D             Rx   d 8 4C 05 27 1D 20 06 04 6A
   0.017543 0 12A             Rx   d 8 C3 FA 01 10 7E 54 A4 6A
   0.017530 2 A0              Rx   d 8 00 EE 28 00 80 00 0A 2F
   0.017661 CANFD   5 Rx        1c0                                   1 0 f 64 22 25 00 00 00 00 1f 56 05 57 d0 22 64 80 00 00 80 00 00 03 00 c1 00 00 00 05 15 12 00 00 00 00 00 01 00 1e 40 30 00 00 00 00 00 00 00 00 00 00 3d 3a 15 15 5e 5a 00 00 56 00 80 90 02 a2 00 00        0    0     3000        0        0        0        0        0
   0.017791 0 13A             Rx   d 8 00 00 00 00 00 00 00 00
   0.017768 2 259             Rx   d 8 55 50 50 01 00 00 01 44
   0.017957 CANFD   5 Rx        259                                   1 0 8  8 55 50 50 01 00 00 01 44        0    0     3000        0        0        0        0        0
   0.018023 0 145             Rx   d 8 41 51 45 B3 27 03 43 00
   0.018096 4 259             Rx   d 8 55 50 50 01 00 00 01 44
   0.018264 0 146             Rx   d 8 03 44 46 00 00 00 07 6A
   0.018502 0 1BA             Rx   d 8 41 41 41 41 43 41 77 82
   0.018560 4 146             Rx   d 8 03 44 46 00 00 00 07 6A
   0.018736 0 21D             Rx   d 8 0F 96 06 CC 13 88 0B 40
   0.018974 0 22E             Rx   d 8 7F 30 00 7E E0 7E A0 00
   0.019026 4 21D             Rx   d 8 0F 96 06 CC 13 88 0B 40
   0.019211 0 239             Rx   d 8 10 FE 5F 06 0A F0 0A 00
   0.019318 4 22E             Rx   d 8 7F 30 00 7E E0 7E A0 00
   0.019447 0 271             Rx   d 8 20 00 00 96 00 8C AA 88
   0.019594 4 239             Rx   d 8 10 FE 5F 06 0A F0 0A 00
   0.019691 0 3FB             Rx   d 8 00 68 00 17 00 00 00 00
   0.019929 0 3FC             Rx   d 8 1E 35 34 00 00 1E 01 5C
   0.019915 4 271             Rx   d 8 20 00 00 96 00 8C AA 88
   0.020002 CANFD   5 Rx        194                                   1 0 f 64 00 00 00 00 00 00 0f 4e 00 00 00 00 00 00 00 00 00 00 00 00 00 00 00 00 00 00 00 00 00 00 00 00 00 00 00 00 00 00 00 00 00 00 00 00 00 00 00 00 00 00 00 00 00 00 00 00 00 00 00 00 00 00 00 00        0    0     3000        0        0        0        0        0
   0.020180 0 3FD             Rx   d 8 00 00 00 00 06 01 01 00
   0.020206 4 3FB             Rx   d 8 00 68 00 17 00 00 00 00
   0.020373 CANFD   5 Rx        140                                   1 0 f 64 4e 45 f4 5d 55 25 79 4b 2f 81 36 ba ee 2a 30 00 c3 ba ef 21 77 c0 22 00 0f 00 00 00 00 00 00 00 00 00 00 00 00 00 00 00 00 00 00 00 00 00 00 00 00 00 00 00 00 00 00 00 00 00 00 00 00 00 00 00        0    0     3000        0        0        0        0        0
   0.020420 0 3FE             Rx   d 8 00 00 0F DD 0F DA 0F DE
   0.020593 4 3FC             Rx   d 8 1E 35 34 00 00 1E 01 5C
   0.020652 0 3FF             Rx   d 8 34 00 55 55 56 55 56 56
   0.020752 CANFD   5 Rx        160                                   1 0 f 64 01 24 00 00 20 a0 fd 66 16 1b 84 58 7e 00 10 00 04 fc b4 10 e8 30 00 00 7f 9c 5e 7a 00 00 40 00 7d 00 27 10 63 84 20 00 3a ee 8a 08 b8 12 10 00 ba f0 6a 52 00 2b 40 00 46 56 7c 27 d0 15 00 00        0    0     3000        0        0        0        0        0
   0.021103 4 3FD             Rx   d 8 00 00 00 00 06 01 01 00
   0.021163 CANFD   5 Rx        120                                   1 0 f 64 90 68 00 00 00 00 07 96 46 50 07 cd 07 d0 00 00 0f a0 20 00 80 00 00 00 10 00 02 00 86 00 00 00 20 00 20 00 16 80 00 00 20 00 20 00 00 00 00 00 3b c3 52 14 42 70 f0 00 00 20 00 e0 72 40 00 00        0    0     3000        0        0        0        0        0
   0.021511 4 3FE             Rx   d 8 00 00 0F DD 0F DA 0F DE
   0.021560 0 82              Rx   d 8 02 00 0A 00 00 00 5A 62
   0.021799 0 F3              Rx   d 8 02 64 01 84 00 00 00 00
   0.022037 0 112             Rx   d 8 00 00 00 34 4C 00 5A 82
   0.022085 CANFD   5 Rx         82                                   1 0 8  8 02 00 0a 00 00 00 5a 62        0    0     3000        0        0        0        0        0
   0.022271 4 3FF             Rx   d 8 34 00 55 55 56 55 56 56
   0.022284 CANFD   5 Rx        112                                   1 0 8  8 00 00 00 34 4c 00 5a 82        0    0     3000        0        0        0        0        0
   0.022383 3 112             Rx   d 8 00 00 00 34 4C 00 5A 82
   0.022747 3 A2              Rx   d 8 00 E8 A8 00 00 00 93 2A
   0.023047 0 195             Rx   d 8 00 4E E0 00 00 00 10 00
   0.022979 3 A3              Rx   d 8 03 FF 54 96 1B 6A 03 32
   0.023020 CANFD   5 Rx         a2                                   1 0 8  8 00 e8 a8 00 00 00 93 2a        0    0     3000        0        0        0        0        0
   0.023145 CANFD   5 Rx         a3                                   1 0 8  8 03 ff 54 96 1b 6a 03 32        0    0     3000        0        0        0        0        0
